<Qucs Dataset 0.0.19>
<indep time 100>
  +0.00000000000000000000e+000
  +2.12121212121212112897e-006
  +4.24242424242424225793e-006
  +6.36363636363636338690e-006
  +8.48484848484848451586e-006
  +1.06060606060606056448e-005
  +1.27272727272727267738e-005
  +1.48484848484848479028e-005
  +1.69696969696969690317e-005
  +1.90909090909090901607e-005
  +2.12121212121212112897e-005
  +2.33333333333333324186e-005
  +2.54545454545454535476e-005
  +2.75757575757575746766e-005
  +2.96969696969696958055e-005
  +3.18181818181818135464e-005
  +3.39393939393939380635e-005
  +3.60606060606060558043e-005
  +3.81818181818181803214e-005
  +4.03030303030302980622e-005
  +4.24242424242424225793e-005
  +4.45454545454545403202e-005
  +4.66666666666666648373e-005
  +4.87878787878787825781e-005
  +5.09090909090909070952e-005
  +5.30303030303030248360e-005
  +5.51515151515151493531e-005
  +5.72727272727272670940e-005
  +5.93939393939393916111e-005
  +6.15151515151515093519e-005
  +6.36363636363636270927e-005
  +6.57575757575757583861e-005
  +6.78787878787878761269e-005
  +6.99999999999999938678e-005
  +7.21212121212121116086e-005
  +7.42424242424242293494e-005
  +7.63636363636363606428e-005
  +7.84848484848484783836e-005
  +8.06060606060605961245e-005
  +8.27272727272727138653e-005
  +8.48484848484848451586e-005
  +8.69696969696969628995e-005
  +8.90909090909090806403e-005
  +9.12121212121211983812e-005
  +9.33333333333333296745e-005
  +9.54545454545454474153e-005
  +9.75757575757575651562e-005
  +9.96969696969696828970e-005
  +1.01818181818181814190e-004
  +1.03939393939393931931e-004
  +1.06060606060606049672e-004
  +1.08181818181818167413e-004
  +1.10303030303030298706e-004
  +1.12424242424242416447e-004
  +1.14545454545454534188e-004
  +1.16666666666666651929e-004
  +1.18787878787878783222e-004
  +1.20909090909090900963e-004
  +1.23030303030303018704e-004
  +1.25151515151515136445e-004
  +1.27272727272727254185e-004
  +1.29393939393939371926e-004
  +1.31515151515151516772e-004
  +1.33636363636363634513e-004
  +1.35757575757575752254e-004
  +1.37878787878787869995e-004
  +1.39999999999999987736e-004
  +1.42121212121212105476e-004
  +1.44242424242424223217e-004
  +1.46363636363636340958e-004
  +1.48484848484848458699e-004
  +1.50606060606060603545e-004
  +1.52727272727272721286e-004
  +1.54848484848484839026e-004
  +1.56969696969696956767e-004
  +1.59090909090909074508e-004
  +1.61212121212121192249e-004
  +1.63333333333333309990e-004
  +1.65454545454545427731e-004
  +1.67575757575757572576e-004
  +1.69696969696969690317e-004
  +1.71818181818181808058e-004
  +1.73939393939393925799e-004
  +1.76060606060606043540e-004
  +1.78181818181818161281e-004
  +1.80303030303030279021e-004
  +1.82424242424242396762e-004
  +1.84545454545454541608e-004
  +1.86666666666666659349e-004
  +1.88787878787878777090e-004
  +1.90909090909090894831e-004
  +1.93030303030303012572e-004
  +1.95151515151515130312e-004
  +1.97272727272727248053e-004
  +1.99393939393939365794e-004
  +2.01515151515151510640e-004
  +2.03636363636363628381e-004
  +2.05757575757575746122e-004
  +2.07878787878787863862e-004
  +2.09999999999999981603e-004
</indep>
<dep Ve.It time>
  +5.35078322092245550171e-005
  +5.12369820350039363610e-005
  +4.89804622027264658789e-005
  +4.67239496679393119592e-005
  +4.44674287415243519911e-005
  +4.22109016567527033808e-005
  +3.99543683151753190909e-005
  +3.76978283079434968862e-005
  +3.54412811419384124554e-005
  +3.31847262658791414052e-005
  +3.09281630609239477966e-005
  +2.86715908351121284833e-005
  +2.64150088070641345919e-005
  +2.41584160949606361094e-005
  +2.19018116946819364386e-005
  +1.96451944610662876259e-005
  +1.73885630769208443969e-005
  +1.51319160218114104549e-005
  +1.28752515254844507715e-005
  +1.06185675154475631787e-005
  +8.36186154266996576820e-006
  +6.10513069099140161049e-006
  +3.84837145088427260000e-006
  +1.59157955552970665383e-006
  -6.65250249562324799797e-007
  -2.92212452312372489744e-006
  -5.17905160208555083565e-006
  -7.43604325025522756084e-006
  -9.69317498889978458165e-006
  -1.19541418607928603680e-005
  -1.43796864076870835585e-005
  -1.77769017675220748493e-005
  -2.18048649055533084735e-005
  -2.59700410955935389137e-005
  -3.04792634464794489084e-005
  -3.49885203691213935578e-005
  -3.94978071320188861776e-005
  -4.40071273452967567322e-005
  -4.85164770178561380819e-005
  -5.30258577129756844310e-005
  -5.75352671096027236159e-005
  -6.20447058437134923168e-005
  -6.65541723204936627343e-005
  -7.10636668164364390145e-005
  -7.55731880762530608495e-005
  -8.00827362405538299619e-005
  -8.45923102322089737149e-005
  -8.91019101425827319586e-005
  -8.97461402794069506650e-005
  -8.97461400546198563447e-005
  -8.97461402747570785978e-005
  -8.97461400631786567145e-005
  -8.91019089040417103719e-005
  -8.45923091092010099668e-005
  -8.00827352216219293026e-005
  -7.55731869320812403015e-005
  -7.10636657264344896376e-005
  -6.65541711706595150253e-005
  -6.20447046618885093882e-005
  -5.75352659710625540836e-005
  -5.30258563997030058922e-005
  -4.85164759369163231572e-005
  -4.40071258097961956674e-005
  -3.94978062328775562104e-005
  -3.49885183925476765752e-005
  -3.04792627402073414600e-005
  -2.59700404661284546635e-005
  -2.14608522815470043673e-005
  -1.69516994404643488907e-005
  -1.24425829571153099857e-005
  -7.93350423411880594806e-006
  -3.42446466699853319281e-006
  +1.08453406321911234140e-006
  +5.59349003767720545177e-006
  +1.01024010810704460809e-005
  +1.46112644845938256799e-005
  +1.91200771834767051000e-005
  +2.36288351495852618172e-005
  +2.81375336155257542263e-005
  +3.26461660679076677246e-005
  +3.71547241490374435488e-005
  +4.16631958012488352199e-005
  +4.61715637755242733729e-005
  +5.06798004955199074420e-005
  +5.51878590962866821573e-005
  +5.96956470577074806236e-005
  +6.42029365953400817579e-005
  +6.87088135662655512519e-005
  +7.31724923829120681585e-005
  +3.09599007956235579720e-005
  +3.32161045379872907693e-005
  +3.54723087242005298688e-005
  +3.77285222842995782502e-005
  +3.99847428367231452350e-005
  +4.22409697374092718385e-005
  +4.44972025204798691872e-005
  +4.67534407726717635991e-005
  +4.90096841281539933590e-005
  +5.12659322479949237017e-005
  +5.35221848295060434355e-005
</dep>
<dep Vdd.It time>
  -1.95114767385998070029e-003
  -1.95113867992394878804e-003
  -1.95112968327513917367e-003
  -1.95112069367529578773e-003
  -1.95111171113069247450e-003
  -1.95110273562210394423e-003
  -1.95109376714518189568e-003
  -1.95108480568285318039e-003
  -1.95107585123083910293e-003
  -1.95106690377253597438e-003
  -1.95105796330358920512e-003
  -1.95104902980785220590e-003
  -1.95104010328095781035e-003
  -1.95103118370724883807e-003
  -1.95102227108243011372e-003
  -1.95101336539139132847e-003
  -1.95100446663002574134e-003
  -1.95099557478387183006e-003
  -1.95098668984917543619e-003
  -1.95097781181229751324e-003
  -1.95096894067009105599e-003
  -1.95096007641003526406e-003
  -1.95095121903000857065e-003
  -1.95094236851913187432e-003
  -1.95093352487704868939e-003
  -1.95092468809559172090e-003
  -1.95091585818286126011e-003
  -1.95090703545368945176e-003
  -1.95089823908553192632e-003
  -1.95089061389105717509e-003
  -1.95093290248761703012e-003
  -1.95117673754007002820e-003
  -1.95019396952085207787e-003
  -1.13134852728815683311e-003
  -1.13155416785877039644e-003
  -1.13174658891373992008e-003
  -1.13193466488304252462e-003
  -1.13211018028308227357e-003
  -1.13228002047916160092e-003
  -1.13244086384302333759e-003
  -1.13259575391452512252e-003
  -1.13274360524807070350e-003
  -1.13288585079089339051e-003
  -1.13302227206504282572e-003
  -1.13315361004358598415e-003
  -1.13327996516693167706e-003
  -1.13340176824617416829e-003
  -1.13351922240451184060e-003
  -1.13353557305161502591e-003
  -1.13353556032459463349e-003
  -1.13353557055151463878e-003
  -1.13353556383461394862e-003
  -1.13351900395381550643e-003
  -1.13340154551534212646e-003
  -1.13327977376960833955e-003
  -1.13315337391378385783e-003
  -1.13302207035942642359e-003
  -1.13288557622891715437e-003
  -1.13274343812701759615e-003
  -1.13259537850550246092e-003
  -1.13244081738380166814e-003
  -1.13227940952372605268e-003
  -1.13211045773039826329e-003
  -1.13193349640975000903e-003
  -1.13174768823957926436e-003
  -1.13155239440948757017e-003
  -1.13134658852688898580e-003
  -1.13112938919352704753e-003
  -1.13089950044908352927e-003
  -1.13065569464014677691e-003
  -1.13039627658561648085e-003
  -1.13011950619048835535e-003
  -1.12982307347820622699e-003
  -1.12950444326718243276e-003
  -1.12916031236737256574e-003
  -1.12878683694443140637e-003
  -1.12837900681586481358e-003
  -1.12793065556352563490e-003
  -1.12743357922878511233e-003
  -1.12687706214103480935e-003
  -1.12624619079530665505e-003
  -1.12551994022054612302e-003
  -1.12466664738004895087e-003
  -1.12363612665422520770e-003
  -1.12234079752784681426e-003
  -1.12060689037159406413e-003
  -1.11800344572861114732e-003
  -1.11278700174200721046e-003
  -1.02989926090198309627e-003
  -1.95105793858569242193e-003
  -1.95106687963331085038e-003
  -1.95107582765780235116e-003
  -1.95108478265631048523e-003
  -1.95109374464957408858e-003
  -1.95110271364144142840e-003
  -1.95111168965171502369e-003
  -1.95112067268363338635e-003
  -1.95112966275738978182e-003
  -1.95113865987577407915e-003
  -1.95114766405936530293e-003
</dep>
<dep _net1.Vt time>
  +5.00000000000000000000e+000
  +5.00000000000000000000e+000
  +5.00000000000000000000e+000
  +5.00000000000000000000e+000
  +5.00000000000000000000e+000
  +5.00000000000000000000e+000
  +5.00000000000000000000e+000
  +5.00000000000000000000e+000
  +5.00000000000000000000e+000
  +5.00000000000000000000e+000
  +5.00000000000000000000e+000
  +5.00000000000000000000e+000
  +5.00000000000000000000e+000
  +5.00000000000000000000e+000
  +5.00000000000000000000e+000
  +5.00000000000000000000e+000
  +5.00000000000000000000e+000
  +5.00000000000000000000e+000
  +5.00000000000000000000e+000
  +5.00000000000000000000e+000
  +5.00000000000000000000e+000
  +5.00000000000000000000e+000
  +5.00000000000000000000e+000
  +5.00000000000000000000e+000
  +5.00000000000000000000e+000
  +5.00000000000000000000e+000
  +5.00000000000000000000e+000
  +5.00000000000000000000e+000
  +5.00000000000000000000e+000
  +5.00000000000000000000e+000
  +5.00000000000000000000e+000
  +5.00000000000000000000e+000
  +5.00000000000000000000e+000
  +5.00000000000000000000e+000
  +5.00000000000000000000e+000
  +5.00000000000000000000e+000
  +5.00000000000000000000e+000
  +5.00000000000000000000e+000
  +5.00000000000000000000e+000
  +5.00000000000000000000e+000
  +5.00000000000000000000e+000
  +5.00000000000000000000e+000
  +5.00000000000000000000e+000
  +5.00000000000000000000e+000
  +5.00000000000000000000e+000
  +5.00000000000000000000e+000
  +5.00000000000000000000e+000
  +5.00000000000000000000e+000
  +5.00000000000000000000e+000
  +5.00000000000000000000e+000
  +5.00000000000000000000e+000
  +5.00000000000000000000e+000
  +5.00000000000000000000e+000
  +5.00000000000000000000e+000
  +5.00000000000000000000e+000
  +5.00000000000000000000e+000
  +5.00000000000000000000e+000
  +5.00000000000000000000e+000
  +5.00000000000000000000e+000
  +5.00000000000000000000e+000
  +5.00000000000000000000e+000
  +5.00000000000000000000e+000
  +5.00000000000000000000e+000
  +5.00000000000000000000e+000
  +5.00000000000000000000e+000
  +5.00000000000000000000e+000
  +5.00000000000000000000e+000
  +5.00000000000000000000e+000
  +5.00000000000000000000e+000
  +5.00000000000000000000e+000
  +5.00000000000000000000e+000
  +5.00000000000000000000e+000
  +5.00000000000000000000e+000
  +5.00000000000000000000e+000
  +5.00000000000000000000e+000
  +5.00000000000000000000e+000
  +5.00000000000000000000e+000
  +5.00000000000000000000e+000
  +5.00000000000000000000e+000
  +5.00000000000000000000e+000
  +5.00000000000000000000e+000
  +5.00000000000000000000e+000
  +5.00000000000000000000e+000
  +5.00000000000000000000e+000
  +5.00000000000000000000e+000
  +5.00000000000000000000e+000
  +5.00000000000000000000e+000
  +5.00000000000000000000e+000
  +5.00000000000000000000e+000
  +5.00000000000000000000e+000
  +5.00000000000000000000e+000
  +5.00000000000000000000e+000
  +5.00000000000000000000e+000
  +5.00000000000000000000e+000
  +5.00000000000000000000e+000
  +5.00000000000000000000e+000
  +5.00000000000000000000e+000
  +5.00000000000000000000e+000
  +5.00000000000000000000e+000
  +5.00000000000000000000e+000
</dep>
<dep _net0.Vt time>
  +7.99869705222848281778e-001
  +7.99890869528514847353e-001
  +7.99911621763267799423e-001
  +7.99932357271656679920e-001
  +7.99953076458444822805e-001
  +7.99973779346910163213e-001
  +7.99994465907495788670e-001
  +8.00015136232597567911e-001
  +8.00035790308348704336e-001
  +8.00056428226260774039e-001
  +8.00077049980140175833e-001
  +8.00097655660914619524e-001
  +8.00118245270670325198e-001
  +8.00138818901429682562e-001
  +8.00159376564829050160e-001
  +8.00179918356287545045e-001
  +8.00200444299101421031e-001
  +8.00220954495391323391e-001
  +8.00241448983582848165e-001
  +8.00261927877518819407e-001
  +8.00282391236550316727e-001
  +8.00302839194322768179e-001
  +8.00323271841121508530e-001
  +8.00343689344239495043e-001
  +8.00364091843037472884e-001
  +8.00384479562892825477e-001
  +8.00404852664190369360e-001
  +8.00425207656252579724e-001
  +8.00445313774508671045e-001
  +8.00451309714909631232e-001
  +7.99829838835356299320e-001
  +7.95041650365585939042e-001
  +7.84580510521939444857e-001
  +6.63607963675579282103e-002
  +6.53765916009242525897e-002
  +6.44414764006906032323e-002
  +6.35516831659637959628e-002
  +6.27030587064293792876e-002
  +6.18927073107411462871e-002
  +6.11174777318485989985e-002
  +6.03749920614646273798e-002
  +5.96627746799112540499e-002
  +5.89788844917120275158e-002
  +5.83213206556964652849e-002
  +5.76884937771504069381e-002
  +5.70787538007629172143e-002
  +5.64907906780887439369e-002
  +5.59232226819952257801e-002
  +5.58436195997247600276e-002
  +5.58436163954329559123e-002
  +5.58436184615006200871e-002
  +5.58436183562122379076e-002
  +5.59228988780959765381e-002
  +5.64904303746412636555e-002
  +5.70785217052059840048e-002
  +5.76881016830345372259e-002
  +5.83210499464519235846e-002
  +5.89784572918111635320e-002
  +5.96624605552397158093e-002
  +6.03745195326912051370e-002
  +6.11171151241415785971e-002
  +6.18921739640344026334e-002
  +6.27026448035136602099e-002
  +6.35510621575574724540e-002
  +6.44410177105296660960e-002
  +6.53758603489150852406e-002
  +6.63600806986171243285e-002
  +6.73981521914073788970e-002
  +6.84958525791179023701e-002
  +6.96592615101159634561e-002
  +7.08960564525474151720e-002
  +7.22147031083514995276e-002
  +7.36257924546521447251e-002
  +7.51415051944382961224e-002
  +7.67771240309699093407e-002
  +7.85509596559832296014e-002
  +8.04863438112497775467e-002
  +8.26124789530140873905e-002
  +8.49677266044276541246e-002
  +8.76026687676172144403e-002
  +9.05872020488582424536e-002
  +9.40203704160882530738e-002
  +9.80507640719017053987e-002
  +1.02914498274566584834e-001
  +1.09022914468824894119e-001
  +1.17192537007685532169e-001
  +1.29447546075129177323e-001
  +1.53968878373106632385e-001
  +5.42627764942170798257e-001
  +8.00076180670339587309e-001
  +8.00055568058462784897e-001
  +8.00034939184128268685e-001
  +8.00014293571023382690e-001
  +7.99993631451689557466e-001
  +7.99972952633122069699e-001
  +7.99952257278081058089e-001
  +7.99931545202736682398e-001
  +7.99910816552036552096e-001
  +7.99890071154386039787e-001
  +7.99869309139170758804e-001
</dep>
<dep Output.Vt time>
  +2.97362276352425673742e-002
  +2.97573348289257993970e-002
  +2.97788668435785830457e-002
  +2.98003824544539781816e-002
  +2.98218812273007838343e-002
  +2.98433632292015582621e-002
  +2.98648285101494048721e-002
  +2.98862770579931893988e-002
  +2.99077089067074156081e-002
  +2.99291240428206893609e-002
  +2.99505224929908740739e-002
  +2.99719042421804152121e-002
  +2.99932693088272375737e-002
  +3.00146176745008860798e-002
  +3.00359493477498663838e-002
  +3.00572643041722604995e-002
  +3.00785625397783154544e-002
  +3.00998440204105419116e-002
  +3.01211087252930657943e-002
  +3.01423566046820495812e-002
  +3.01635876140212803864e-002
  +3.01848016785110362381e-002
  +3.02059987178384600770e-002
  +3.02271786158402749889e-002
  +3.02483412348344971043e-002
  +3.02694863878263456525e-002
  +3.02906138763617063803e-002
  +3.03117257114059075740e-002
  +3.03329625234918485999e-002
  +3.03628049971214272751e-002
  +3.07855194728440320628e-002
  +3.44276831960847323755e-002
  +4.95078327300554343893e-002
  +4.61630112537810610718e+000
  +4.61631881946285549390e+000
  +4.61634955570473248798e+000
  +4.61635539188373744679e+000
  +4.61637909396308376841e+000
  +4.61639119643719908481e+000
  +4.61641046220594208904e+000
  +4.61642496454026662889e+000
  +4.61644228065415695994e+000
  +4.61645761679108890263e+000
  +4.61647400063860224861e+000
  +4.61648953901799519173e+000
  +4.61650540991465696550e+000
  +4.61652089856489311614e+000
  +4.61653643201679919628e+000
  +4.61653918705768440134e+000
  +4.61653925007897214527e+000
  +4.61653919994638073376e+000
  +4.61653923162110224609e+000
  +4.61653778253897151274e+000
  +4.61652230570325006198e+000
  +4.61650654157763451479e+000
  +4.61649104092218198758e+000
  +4.61647521936424354294e+000
  +4.61645933443227729498e+000
  +4.61644338024777667329e+000
  +4.61642720149144736297e+000
  +4.61641104317199069129e+000
  +4.61639460127445300230e+000
  +4.61637820386361408254e+000
  +4.61636150471661821371e+000
  +4.61634484756344676271e+000
  +4.61632788592649312420e+000
  +4.61631095322500506484e+000
  +4.61629371859901560526e+000
  +4.61627649531018935392e+000
  +4.61625897368119453290e+000
  +4.61624144359505450552e+000
  +4.61622361779635337342e+000
  +4.61620576219777856153e+000
  +4.61618761144980460642e+000
  +4.61616940784237872464e+000
  +4.61615090670518846139e+000
  +4.61613232415418561772e+000
  +4.61611343989841493851e+000
  +4.61609445102028281838e+000
  +4.61607513916951806010e+000
  +4.61605570121320063492e+000
  +4.61603591054734518906e+000
  +4.61601599324186739892e+000
  +4.61599570645057433183e+000
  +4.61597533715029584300e+000
  +4.61595507824582274026e+000
  +4.61593625900039761234e+000
  +4.61593221343945891988e+000
  +4.61684570881850842028e+000
  +2.99515079769050208969e-002
  +2.99300976649760248904e-002
  +2.99086708242005602787e-002
  +2.98872279443162976176e-002
  +2.98657686953121039031e-002
  +2.98442932521030442061e-002
  +2.98228013588583938664e-002
  +2.98012931841855829851e-002
  +2.97797684882319321775e-002
  +2.97582274294760917854e-002
  +2.97366697818125906572e-002
</dep>
<dep _net2.Vt time>
  -2.48513188616644598028e+000
  -2.37974063223360321473e+000
  -2.27367585222943224821e+000
  -2.16761072924321585020e+000
  -2.06154600066350690568e+000
  -1.95548156152656238405e+000
  -1.84941741645948698469e+000
  -1.74335358467817091999e+000
  -1.63729008935919750911e+000
  -1.53122695641277117851e+000
  -1.42516421492445344299e+000
  -1.31910189741639660710e+000
  -1.21304004061344028464e+000
  -1.10697868596109239014e+000
  -1.00091788065297926380e+000
  -8.94857678511702836488e-001
  -7.88798141445326339571e-001
  -6.82739340914257697435e-001
  -5.76681360120412489501e-001
  -4.70624296470934400105e-001
  -3.64568265070268959782e-001
  -2.58513402977949668937e-001
  -1.52459875141772310814e-001
  -4.64078821022251425399e-002
  +5.96423291796619250982e-002
  +1.65690450443487846677e-001
  +2.71736089853494622304e-001
  +3.77778694510731483103e-001
  +4.83814714915649812799e-001
  +5.89670484057886912233e-001
  +6.87791102475070470490e-001
  +7.40243192684038930906e-001
  +7.63050137317782817270e-001
  +7.79408068507103757305e-001
  +7.79595830136677991895e-001
  +7.79781966893718037070e-001
  +7.79966701158748998424e-001
  +7.80149863255901077075e-001
